!Agilent Technologies,E8363C,MY49030535,A.09.33.09
!Agilent E8363C: A.09.33.09
!Date: Wednesday, August 19, 2015 10:09:16
!Correction: S11(Off) 
!S21(Off) 
!S12(Off) 
!S22(Off) 
!S2P File: Measurements: S11, S21, S12, S22:
# Hz S  dB   R 50
4.000000000000000000e+09 -2.000000000000000000e+02 4.500000000000000000e+01 -2.014445304870000086e+01 5.755514907839999950e+01 -2.000000000000000000e+02 4.500000000000000000e+01 -2.000000000000000000e+02 4.500000000000000000e+01
4.002000000000000000e+09 -2.000000000000000000e+02 4.500000000000000000e+01 -2.039552879329999868e+01 8.513561248780000312e+00 -2.000000000000000000e+02 4.500000000000000000e+01 -2.000000000000000000e+02 4.500000000000000000e+01
4.004000000000000000e+09 -2.000000000000000000e+02 4.500000000000000000e+01 -2.061188507079999965e+01 -4.039240646359999687e+01 -2.000000000000000000e+02 4.500000000000000000e+01 -2.000000000000000000e+02 4.500000000000000000e+01
4.006000000000000000e+09 -2.000000000000000000e+02 4.500000000000000000e+01 -2.077410888669999878e+01 -8.920767211909999617e+01 -2.000000000000000000e+02 4.500000000000000000e+01 -2.000000000000000000e+02 4.500000000000000000e+01
4.008000000000000000e+09 -2.000000000000000000e+02 4.500000000000000000e+01 -2.097197914119999851e+01 -1.383173675539999863e+02 -2.000000000000000000e+02 4.500000000000000000e+01 -2.000000000000000000e+02 4.500000000000000000e+01
4.010000000000000000e+09 -2.000000000000000000e+02 4.500000000000000000e+01 -2.113268470759999929e+01 1.728843078609999964e+02 -2.000000000000000000e+02 4.500000000000000000e+01 -2.000000000000000000e+02 4.500000000000000000e+01
4.012000000000000000e+09 -2.000000000000000000e+02 4.500000000000000000e+01 -2.128171730040000043e+01 1.242477416990000023e+02 -2.000000000000000000e+02 4.500000000000000000e+01 -2.000000000000000000e+02 4.500000000000000000e+01
4.014000000000000000e+09 -2.000000000000000000e+02 4.500000000000000000e+01 -2.143265724180000120e+01 7.483567047120000382e+01 -2.000000000000000000e+02 4.500000000000000000e+01 -2.000000000000000000e+02 4.500000000000000000e+01
4.016000000000000000e+09 -2.000000000000000000e+02 4.500000000000000000e+01 -2.158630561829999905e+01 2.598600959779999897e+01 -2.000000000000000000e+02 4.500000000000000000e+01 -2.000000000000000000e+02 4.500000000000000000e+01
4.018000000000000000e+09 -2.000000000000000000e+02 4.500000000000000000e+01 -2.173811721799999930e+01 -2.323573493960000036e+01 -2.000000000000000000e+02 4.500000000000000000e+01 -2.000000000000000000e+02 4.500000000000000000e+01
4.020000000000000000e+09 -2.000000000000000000e+02 4.500000000000000000e+01 -2.186946678159999990e+01 -7.222404479979999792e+01 -2.000000000000000000e+02 4.500000000000000000e+01 -2.000000000000000000e+02 4.500000000000000000e+01
4.022000000000000000e+09 -2.000000000000000000e+02 4.500000000000000000e+01 -2.199876213070000119e+01 -1.216452865600000024e+02 -2.000000000000000000e+02 4.500000000000000000e+01 -2.000000000000000000e+02 4.500000000000000000e+01
4.024000000000000000e+09 -2.000000000000000000e+02 4.500000000000000000e+01 -2.214569091799999967e+01 -1.708946228030000043e+02 -2.000000000000000000e+02 4.500000000000000000e+01 -2.000000000000000000e+02 4.500000000000000000e+01
4.026000000000000000e+09 -2.000000000000000000e+02 4.500000000000000000e+01 -2.233894920350000035e+01 1.399778747560000056e+02 -2.000000000000000000e+02 4.500000000000000000e+01 -2.000000000000000000e+02 4.500000000000000000e+01
4.028000000000000000e+09 -2.000000000000000000e+02 4.500000000000000000e+01 -2.248938179019999950e+01 9.079219055180000453e+01 -2.000000000000000000e+02 4.500000000000000000e+01 -2.000000000000000000e+02 4.500000000000000000e+01
4.030000000000000000e+09 -2.000000000000000000e+02 4.500000000000000000e+01 -2.259682846069999940e+01 4.128202056880000015e+01 -2.000000000000000000e+02 4.500000000000000000e+01 -2.000000000000000000e+02 4.500000000000000000e+01
4.032000000000000000e+09 -2.000000000000000000e+02 4.500000000000000000e+01 -2.269903564450000033e+01 -8.235877990720000597e+00 -2.000000000000000000e+02 4.500000000000000000e+01 -2.000000000000000000e+02 4.500000000000000000e+01
4.034000000000000000e+09 -2.000000000000000000e+02 4.500000000000000000e+01 -2.284916114809999854e+01 -5.774717330930000259e+01 -2.000000000000000000e+02 4.500000000000000000e+01 -2.000000000000000000e+02 4.500000000000000000e+01
4.036000000000000000e+09 -2.000000000000000000e+02 4.500000000000000000e+01 -2.298983192440000067e+01 -1.075961608890000036e+02 -2.000000000000000000e+02 4.500000000000000000e+01 -2.000000000000000000e+02 4.500000000000000000e+01
4.038000000000000000e+09 -2.000000000000000000e+02 4.500000000000000000e+01 -2.318357658389999898e+01 -1.573384399409999901e+02 -2.000000000000000000e+02 4.500000000000000000e+01 -2.000000000000000000e+02 4.500000000000000000e+01
4.040000000000000000e+09 -2.000000000000000000e+02 4.500000000000000000e+01 -2.342320251459999980e+01 1.522402801510000074e+02 -2.000000000000000000e+02 4.500000000000000000e+01 -2.000000000000000000e+02 4.500000000000000000e+01
4.042000000000000000e+09 -2.000000000000000000e+02 4.500000000000000000e+01 -2.352965545649999868e+01 1.018803787230000069e+02 -2.000000000000000000e+02 4.500000000000000000e+01 -2.000000000000000000e+02 4.500000000000000000e+01
4.044000000000000000e+09 -2.000000000000000000e+02 4.500000000000000000e+01 -2.386666870119999828e+01 5.148048782349999897e+01 -2.000000000000000000e+02 4.500000000000000000e+01 -2.000000000000000000e+02 4.500000000000000000e+01
4.046000000000000000e+09 -2.000000000000000000e+02 4.500000000000000000e+01 -2.414830589290000162e+01 1.116516351700000076e+00 -2.000000000000000000e+02 4.500000000000000000e+01 -2.000000000000000000e+02 4.500000000000000000e+01
4.048000000000000000e+09 -2.000000000000000000e+02 4.500000000000000000e+01 -2.450934791559999937e+01 -4.953676986690000206e+01 -2.000000000000000000e+02 4.500000000000000000e+01 -2.000000000000000000e+02 4.500000000000000000e+01
4.050000000000000000e+09 -2.000000000000000000e+02 4.500000000000000000e+01 -2.491919708249999843e+01 -1.002577590939999936e+02 -2.000000000000000000e+02 4.500000000000000000e+01 -2.000000000000000000e+02 4.500000000000000000e+01
4.052000000000000000e+09 -2.000000000000000000e+02 4.500000000000000000e+01 -2.536285781859999844e+01 -1.507407226560000026e+02 -2.000000000000000000e+02 4.500000000000000000e+01 -2.000000000000000000e+02 4.500000000000000000e+01
4.054000000000000000e+09 -2.000000000000000000e+02 4.500000000000000000e+01 -2.587845230099999938e+01 1.586527557370000068e+02 -2.000000000000000000e+02 4.500000000000000000e+01 -2.000000000000000000e+02 4.500000000000000000e+01
4.056000000000000000e+09 -2.000000000000000000e+02 4.500000000000000000e+01 -2.649753570560000071e+01 1.076506652829999950e+02 -2.000000000000000000e+02 4.500000000000000000e+01 -2.000000000000000000e+02 4.500000000000000000e+01
4.058000000000000000e+09 -2.000000000000000000e+02 4.500000000000000000e+01 -2.717861175539999863e+01 5.767594909670000192e+01 -2.000000000000000000e+02 4.500000000000000000e+01 -2.000000000000000000e+02 4.500000000000000000e+01
4.060000000000000000e+09 -2.000000000000000000e+02 4.500000000000000000e+01 -2.794118118289999941e+01 6.891669750210000167e+00 -2.000000000000000000e+02 4.500000000000000000e+01 -2.000000000000000000e+02 4.500000000000000000e+01
4.062000000000000000e+09 -2.000000000000000000e+02 4.500000000000000000e+01 -2.870034790040000061e+01 -4.289977264400000223e+01 -2.000000000000000000e+02 4.500000000000000000e+01 -2.000000000000000000e+02 4.500000000000000000e+01
4.064000000000000000e+09 -2.000000000000000000e+02 4.500000000000000000e+01 -2.987896537780000017e+01 -9.325180053709999584e+01 -2.000000000000000000e+02 4.500000000000000000e+01 -2.000000000000000000e+02 4.500000000000000000e+01
4.066000000000000000e+09 -2.000000000000000000e+02 4.500000000000000000e+01 -3.091961288450000112e+01 -1.429936676030000058e+02 -2.000000000000000000e+02 4.500000000000000000e+01 -2.000000000000000000e+02 4.500000000000000000e+01
4.068000000000000000e+09 -2.000000000000000000e+02 4.500000000000000000e+01 -3.235700225829999965e+01 1.675476226810000071e+02 -2.000000000000000000e+02 4.500000000000000000e+01 -2.000000000000000000e+02 4.500000000000000000e+01
4.070000000000000000e+09 -2.000000000000000000e+02 4.500000000000000000e+01 -3.373919296260000067e+01 1.185663375849999994e+02 -2.000000000000000000e+02 4.500000000000000000e+01 -2.000000000000000000e+02 4.500000000000000000e+01
4.072000000000000000e+09 -2.000000000000000000e+02 4.500000000000000000e+01 -3.553291320799999653e+01 7.174303436280000312e+01 -2.000000000000000000e+02 4.500000000000000000e+01 -2.000000000000000000e+02 4.500000000000000000e+01
4.074000000000000000e+09 -2.000000000000000000e+02 4.500000000000000000e+01 -3.793082046509999827e+01 2.836447906489999937e+01 -2.000000000000000000e+02 4.500000000000000000e+01 -2.000000000000000000e+02 4.500000000000000000e+01
4.076000000000000000e+09 -2.000000000000000000e+02 4.500000000000000000e+01 -4.049118041989999739e+01 -1.364827919010000024e+01 -2.000000000000000000e+02 4.500000000000000000e+01 -2.000000000000000000e+02 4.500000000000000000e+01
4.078000000000000000e+09 -2.000000000000000000e+02 4.500000000000000000e+01 -4.347336959839999793e+01 -4.540609359740000173e+01 -2.000000000000000000e+02 4.500000000000000000e+01 -2.000000000000000000e+02 4.500000000000000000e+01
4.080000000000000000e+09 -2.000000000000000000e+02 4.500000000000000000e+01 -4.580912780759999947e+01 -6.464992523189999929e+01 -2.000000000000000000e+02 4.500000000000000000e+01 -2.000000000000000000e+02 4.500000000000000000e+01
4.082000000000000000e+09 -2.000000000000000000e+02 4.500000000000000000e+01 -4.502496337889999722e+01 -7.313256835939999689e+01 -2.000000000000000000e+02 4.500000000000000000e+01 -2.000000000000000000e+02 4.500000000000000000e+01
4.084000000000000000e+09 -2.000000000000000000e+02 4.500000000000000000e+01 -4.162770462040000297e+01 -1.030131301880000052e+02 -2.000000000000000000e+02 4.500000000000000000e+01 -2.000000000000000000e+02 4.500000000000000000e+01
4.086000000000000000e+09 -2.000000000000000000e+02 4.500000000000000000e+01 -3.889437866210000294e+01 -1.424398193359999993e+02 -2.000000000000000000e+02 4.500000000000000000e+01 -2.000000000000000000e+02 4.500000000000000000e+01
4.088000000000000000e+09 -2.000000000000000000e+02 4.500000000000000000e+01 -3.676451110840000069e+01 1.726136779789999878e+02 -2.000000000000000000e+02 4.500000000000000000e+01 -2.000000000000000000e+02 4.500000000000000000e+01
4.090000000000000000e+09 -2.000000000000000000e+02 4.500000000000000000e+01 -3.495746612549999810e+01 1.286370849609999993e+02 -2.000000000000000000e+02 4.500000000000000000e+01 -2.000000000000000000e+02 4.500000000000000000e+01
4.092000000000000000e+09 -2.000000000000000000e+02 4.500000000000000000e+01 -3.349491882320000258e+01 8.129058837889999722e+01 -2.000000000000000000e+02 4.500000000000000000e+01 -2.000000000000000000e+02 4.500000000000000000e+01
4.094000000000000000e+09 -2.000000000000000000e+02 4.500000000000000000e+01 -3.228443527219999964e+01 3.315519332889999760e+01 -2.000000000000000000e+02 4.500000000000000000e+01 -2.000000000000000000e+02 4.500000000000000000e+01
4.096000000000000000e+09 -2.000000000000000000e+02 4.500000000000000000e+01 -3.102431869509999984e+01 -1.361492919920000055e+01 -2.000000000000000000e+02 4.500000000000000000e+01 -2.000000000000000000e+02 4.500000000000000000e+01
4.098000000000000000e+09 -2.000000000000000000e+02 4.500000000000000000e+01 -3.004424667360000001e+01 -6.338077545170000349e+01 -2.000000000000000000e+02 4.500000000000000000e+01 -2.000000000000000000e+02 4.500000000000000000e+01
4.100000000000000000e+09 -2.000000000000000000e+02 4.500000000000000000e+01 -2.908553314210000096e+01 -1.112758254999999963e+02 -2.000000000000000000e+02 4.500000000000000000e+01 -2.000000000000000000e+02 4.500000000000000000e+01
4.102000000000000000e+09 -2.000000000000000000e+02 4.500000000000000000e+01 -2.822692489619999989e+01 -1.601042327879999903e+02 -2.000000000000000000e+02 4.500000000000000000e+01 -2.000000000000000000e+02 4.500000000000000000e+01
4.104000000000000000e+09 -2.000000000000000000e+02 4.500000000000000000e+01 -2.741461181640000078e+01 1.516290283200000033e+02 -2.000000000000000000e+02 4.500000000000000000e+01 -2.000000000000000000e+02 4.500000000000000000e+01
4.106000000000000000e+09 -2.000000000000000000e+02 4.500000000000000000e+01 -2.671185684199999955e+01 1.030150680539999968e+02 -2.000000000000000000e+02 4.500000000000000000e+01 -2.000000000000000000e+02 4.500000000000000000e+01
4.108000000000000000e+09 -2.000000000000000000e+02 4.500000000000000000e+01 -2.596420478820000000e+01 5.334360885619999948e+01 -2.000000000000000000e+02 4.500000000000000000e+01 -2.000000000000000000e+02 4.500000000000000000e+01
4.110000000000000000e+09 -2.000000000000000000e+02 4.500000000000000000e+01 -2.520048522949999992e+01 4.071552276610000298e+00 -2.000000000000000000e+02 4.500000000000000000e+01 -2.000000000000000000e+02 4.500000000000000000e+01
4.112000000000000000e+09 -2.000000000000000000e+02 4.500000000000000000e+01 -2.455420303340000032e+01 -4.560782241820000138e+01 -2.000000000000000000e+02 4.500000000000000000e+01 -2.000000000000000000e+02 4.500000000000000000e+01
4.114000000000000000e+09 -2.000000000000000000e+02 4.500000000000000000e+01 -2.384786415099999957e+01 -9.489438629149999826e+01 -2.000000000000000000e+02 4.500000000000000000e+01 -2.000000000000000000e+02 4.500000000000000000e+01
4.116000000000000000e+09 -2.000000000000000000e+02 4.500000000000000000e+01 -2.323926544189999888e+01 -1.442821807859999979e+02 -2.000000000000000000e+02 4.500000000000000000e+01 -2.000000000000000000e+02 4.500000000000000000e+01
4.118000000000000000e+09 -2.000000000000000000e+02 4.500000000000000000e+01 -2.264987754819999921e+01 1.658043823239999881e+02 -2.000000000000000000e+02 4.500000000000000000e+01 -2.000000000000000000e+02 4.500000000000000000e+01
4.120000000000000000e+09 -2.000000000000000000e+02 4.500000000000000000e+01 -2.205640792850000054e+01 1.157239761350000009e+02 -2.000000000000000000e+02 4.500000000000000000e+01 -2.000000000000000000e+02 4.500000000000000000e+01
4.122000000000000000e+09 -2.000000000000000000e+02 4.500000000000000000e+01 -2.145920181270000171e+01 6.550426483149999513e+01 -2.000000000000000000e+02 4.500000000000000000e+01 -2.000000000000000000e+02 4.500000000000000000e+01
4.124000000000000000e+09 -2.000000000000000000e+02 4.500000000000000000e+01 -2.097055435180000060e+01 1.540631961819999951e+01 -2.000000000000000000e+02 4.500000000000000000e+01 -2.000000000000000000e+02 4.500000000000000000e+01
4.126000000000000000e+09 -2.000000000000000000e+02 4.500000000000000000e+01 -2.041923904420000113e+01 -3.507593917850000054e+01 -2.000000000000000000e+02 4.500000000000000000e+01 -2.000000000000000000e+02 4.500000000000000000e+01
4.128000000000000000e+09 -2.000000000000000000e+02 4.500000000000000000e+01 -1.991100692750000078e+01 -8.538547515870000382e+01 -2.000000000000000000e+02 4.500000000000000000e+01 -2.000000000000000000e+02 4.500000000000000000e+01
4.130000000000000000e+09 -2.000000000000000000e+02 4.500000000000000000e+01 -1.944807243349999837e+01 -1.359189758299999937e+02 -2.000000000000000000e+02 4.500000000000000000e+01 -2.000000000000000000e+02 4.500000000000000000e+01
4.132000000000000000e+09 -2.000000000000000000e+02 4.500000000000000000e+01 -1.901959609989999933e+01 1.734184112549999952e+02 -2.000000000000000000e+02 4.500000000000000000e+01 -2.000000000000000000e+02 4.500000000000000000e+01
4.134000000000000000e+09 -2.000000000000000000e+02 4.500000000000000000e+01 -1.858868980409999949e+01 1.225786743160000043e+02 -2.000000000000000000e+02 4.500000000000000000e+01 -2.000000000000000000e+02 4.500000000000000000e+01
4.136000000000000000e+09 -2.000000000000000000e+02 4.500000000000000000e+01 -1.818710136409999834e+01 7.179273223879999932e+01 -2.000000000000000000e+02 4.500000000000000000e+01 -2.000000000000000000e+02 4.500000000000000000e+01
4.138000000000000000e+09 -2.000000000000000000e+02 4.500000000000000000e+01 -1.783418464660000069e+01 2.083266830439999850e+01 -2.000000000000000000e+02 4.500000000000000000e+01 -2.000000000000000000e+02 4.500000000000000000e+01
4.140000000000000000e+09 -2.000000000000000000e+02 4.500000000000000000e+01 -1.749877166750000157e+01 -3.000011062620000146e+01 -2.000000000000000000e+02 4.500000000000000000e+01 -2.000000000000000000e+02 4.500000000000000000e+01
4.142000000000000000e+09 -2.000000000000000000e+02 4.500000000000000000e+01 -1.720909881589999912e+01 -8.081321716310000625e+01 -2.000000000000000000e+02 4.500000000000000000e+01 -2.000000000000000000e+02 4.500000000000000000e+01
4.144000000000000000e+09 -2.000000000000000000e+02 4.500000000000000000e+01 -1.693577384949999853e+01 -1.316134948730000076e+02 -2.000000000000000000e+02 4.500000000000000000e+01 -2.000000000000000000e+02 4.500000000000000000e+01
4.146000000000000000e+09 -2.000000000000000000e+02 4.500000000000000000e+01 -1.665278053280000137e+01 1.773129272459999868e+02 -2.000000000000000000e+02 4.500000000000000000e+01 -2.000000000000000000e+02 4.500000000000000000e+01
4.148000000000000000e+09 -2.000000000000000000e+02 4.500000000000000000e+01 -1.642826080320000059e+01 1.265676422119999955e+02 -2.000000000000000000e+02 4.500000000000000000e+01 -2.000000000000000000e+02 4.500000000000000000e+01
4.150000000000000000e+09 -2.000000000000000000e+02 4.500000000000000000e+01 -1.616708183289999923e+01 7.586356353760000104e+01 -2.000000000000000000e+02 4.500000000000000000e+01 -2.000000000000000000e+02 4.500000000000000000e+01
4.152000000000000000e+09 -2.000000000000000000e+02 4.500000000000000000e+01 -1.594500350949999934e+01 2.504716873170000113e+01 -2.000000000000000000e+02 4.500000000000000000e+01 -2.000000000000000000e+02 4.500000000000000000e+01
4.154000000000000000e+09 -2.000000000000000000e+02 4.500000000000000000e+01 -1.573766899109999962e+01 -2.577182960509999887e+01 -2.000000000000000000e+02 4.500000000000000000e+01 -2.000000000000000000e+02 4.500000000000000000e+01
4.156000000000000000e+09 -2.000000000000000000e+02 4.500000000000000000e+01 -1.556593799590000060e+01 -7.656015014650000694e+01 -2.000000000000000000e+02 4.500000000000000000e+01 -2.000000000000000000e+02 4.500000000000000000e+01
4.158000000000000000e+09 -2.000000000000000000e+02 4.500000000000000000e+01 -1.538448238369999999e+01 -1.273261871339999942e+02 -2.000000000000000000e+02 4.500000000000000000e+01 -2.000000000000000000e+02 4.500000000000000000e+01
4.160000000000000000e+09 -2.000000000000000000e+02 4.500000000000000000e+01 -1.523124504089999931e+01 -1.779284667969999987e+02 -2.000000000000000000e+02 4.500000000000000000e+01 -2.000000000000000000e+02 4.500000000000000000e+01
4.162000000000000000e+09 -2.000000000000000000e+02 4.500000000000000000e+01 -1.510391330719999914e+01 1.314540710450000063e+02 -2.000000000000000000e+02 4.500000000000000000e+01 -2.000000000000000000e+02 4.500000000000000000e+01
4.164000000000000000e+09 -2.000000000000000000e+02 4.500000000000000000e+01 -1.495846080779999987e+01 8.082095336909999617e+01 -2.000000000000000000e+02 4.500000000000000000e+01 -2.000000000000000000e+02 4.500000000000000000e+01
4.166000000000000000e+09 -2.000000000000000000e+02 4.500000000000000000e+01 -1.483231067660000058e+01 3.023230361939999966e+01 -2.000000000000000000e+02 4.500000000000000000e+01 -2.000000000000000000e+02 4.500000000000000000e+01
4.168000000000000000e+09 -2.000000000000000000e+02 4.500000000000000000e+01 -1.472047615049999969e+01 -2.007867240910000106e+01 -2.000000000000000000e+02 4.500000000000000000e+01 -2.000000000000000000e+02 4.500000000000000000e+01
4.170000000000000000e+09 -2.000000000000000000e+02 4.500000000000000000e+01 -1.460596370700000080e+01 -7.052866363530000626e+01 -2.000000000000000000e+02 4.500000000000000000e+01 -2.000000000000000000e+02 4.500000000000000000e+01
